<Qucs Dataset 0.0.19>
<indep XC 1>
  +1.98943678864869184508e+002
</indep>
<indep L 1>
  +4.06000000000000027534e-001
</indep>
<indep C 1>
  +1.59999999999999992760e-005
</indep>
<indep R 1>
  +5.50000000000000000000e+001
</indep>
<indep acfrequency 1>
  +5.00000000000000000000e+001
</indep>
<indep E 3>
  +5.00000000000000000000e+001
  +1.00000000000000000000e+002
  +2.30000000000000000000e+002
</indep>
<dep cos_alfa1 acfrequency E>
  +9.69838831512683907654e-001
  +9.69838831512683907654e-001
  +9.69838831512684018676e-001
</dep>
<dep Q1 acfrequency E>
  -1.25663706143591742403e+001
  -5.02654824574366969614e+001
  -2.65904402199840092180e+002
</dep>
<dep P1 acfrequency E>
  +5.00000000000000000000e+001
  +2.00000000000000000000e+002
  +1.05800000000000022737e+003
</dep>
<dep S1 acfrequency E>
  +5.00000000000000000000e+001-j1.25663706143591742403e+001
  +2.00000000000000000000e+002-j5.02654824574366969614e+001
  +1.05800000000000022737e+003-j2.65904402199840092180e+002
</dep>
<dep cos_alfa_2 acfrequency E>
  +3.14099793202171961859e-001
  +3.14099793202171961859e-001
  +3.14099793202172017370e-001
</dep>
<dep P2 acfrequency E>
  +5.13863280723725868171e+000
  +2.05545312289490347268e+001
  +1.08733470201140391964e+002
</dep>
<dep S2 acfrequency E>
  +5.13863280723725868171e+000+j1.55318996230061117103e+001
  +2.05545312289490347268e+001+j6.21275984920244468412e+001
  +1.08733470201140391964e+002+j3.28654996022809257283e+002
</dep>
<dep U_V2.v acfrequency E>
  +5.00000000000000000000e+001
  +1.00000000000000000000e+002
  +2.30000000000000000000e+002
</dep>
<dep U_m.v acfrequency E>
  +5.00000000000000000000e+001
  +1.00000000000000000000e+002
  +2.30000000000000000000e+002
</dep>
<dep U_L.v acfrequency E>
  +4.81117731274030546729e+001+j1.59174822016380996814e+001
  +9.62235462548061093457e+001+j3.18349644032761993628e+001
  +2.21314156386054065706e+002+j7.32204181275352539160e+001
</dep>
<dep U_2.v acfrequency E>
  +1.88822687259694421691e+000-j1.59174822016380996814e+001
  +3.77645374519388843382e+000-j3.18349644032761993628e+001
  +8.68584361394594317574e+000-j7.32204181275352539160e+001
</dep>
<dep V2.i acfrequency E>
  -1.00000000000000000000e+000-j2.51327412287183471484e-001
  -2.00000000000000000000e+000-j5.02654824574366942969e-001
  -4.60000000000000053291e+000-j1.15610609652104390221e+000
</dep>
<dep I_A2.i acfrequency E>
  +1.00000000000000000000e+000+j2.51327412287183471484e-001
  +2.00000000000000000000e+000+j5.02654824574366942969e-001
  +4.60000000000000053291e+000+j1.15610609652104390221e+000
</dep>
<dep V3.i acfrequency E>
  -1.02772656144745178075e-001+j3.10637992460122247529e-001
  -2.05545312289490356150e-001+j6.21275984920244495058e-001
  -4.72754218265827808043e-001+j1.42893476531656204997e+000
</dep>
<dep I_m.i acfrequency E>
  +1.02772656144745178075e-001-j3.10637992460122247529e-001
  +2.05545312289490356150e-001-j6.21275984920244495058e-001
  +4.72754218265827808043e-001-j1.42893476531656204997e+000
</dep>
<dep A_1.i acfrequency E>
  +3.77645374519388829504e-002-j3.18349644032762002510e-001
  +7.55290749038777659008e-002-j6.36699288065524005020e-001
  +1.73716872278918854633e-001-j1.46440836255070516714e+000
</dep>
<dep A_2.i acfrequency E>
  +6.50081186928062881858e-002+j7.71165157263975498125e-003
  +1.30016237385612576372e-001+j1.54233031452795099625e-002
  +2.99037345986908953410e-001+j3.54735972341431171628e-002
</dep>
<dep _net6.v acfrequency E>
  +1.88822687259694421691e+000-j1.59174822016380996814e+001
  +3.77645374519388843382e+000-j3.18349644032761993628e+001
  +8.68584361394594317574e+000-j7.32204181275352539160e+001
</dep>
<dep _net4.v acfrequency E>
  +1.88822687259694421691e+000-j1.59174822016380996814e+001
  +3.77645374519388843382e+000-j3.18349644032761993628e+001
  +8.68584361394594317574e+000-j7.32204181275352539160e+001
</dep>
<dep _net1.v acfrequency E>
  +5.00000000000000000000e+001
  +1.00000000000000000000e+002
  +2.30000000000000000000e+002
</dep>
<dep _net5.v acfrequency E>
  +1.88822687259694421691e+000-j1.59174822016380996814e+001
  +3.77645374519388843382e+000-j3.18349644032761993628e+001
  +8.68584361394594317574e+000-j7.32204181275352539160e+001
</dep>
<dep _net3.v acfrequency E>
  +5.00000000000000000000e+001
  +1.00000000000000000000e+002
  +2.30000000000000000000e+002
</dep>
<dep _net2.v acfrequency E>
  +5.00000000000000000000e+001
  +1.00000000000000000000e+002
  +2.30000000000000000000e+002
</dep>
<dep _net0.v acfrequency E>
  +5.00000000000000000000e+001
  +1.00000000000000000000e+002
  +2.30000000000000000000e+002
</dep>
