<Qucs Dataset 0.0.19>
<indep acfrequency 1>
  +5.00000000000000000000e+001
</indep>
<indep L 10>
  +0.00000000000000000000e+000
  +2.00000000000000000000e+000
  +4.00000000000000000000e+000
  +6.00000000000000000000e+000
  +8.00000000000000000000e+000
  +1.00000000000000000000e+001
  +1.20000000000000000000e+001
  +1.40000000000000000000e+001
  +1.60000000000000000000e+001
  +1.80000000000000000000e+001
</indep>
<dep cos acfrequency L>
  +1.95736855275374793672e-001
  +2.19769694054807424033e-001
  +2.45952462524126752585e-001
  +2.69208574958223423312e-001
  +2.87518289180127173399e-001
  +3.01055649087775600847e-001
  +3.10801515921165005807e-001
  +3.17778670912452987363e-001
  +3.22802884530047795586e-001
  +3.26462888805787776469e-001
</dep>
<dep P acfrequency L>
  +1.06564830853147558543e+001
  +1.34730836802508537886e+001
  +1.69128243049267084075e+001
  +2.02860651313598872036e+001
  +2.31534780154313573064e+001
  +2.53938224688227371928e+001
  +2.70701358758885781697e+001
  +2.83028735445601000720e+001
  +2.92074435312348938965e+001
  +2.98753002790737731686e+001
</dep>
<dep S acfrequency L>
  +1.06564830853147558543e+001+j5.33897865816090515523e+001
  +1.34730836802508537886e+001+j5.98066574424882091421e+001
  +1.69128243049267084075e+001+j6.66522878985304316757e+001
  +2.02860651313598872036e+001+j7.25725104496254402875e+001
  +2.31534780154313573064e+001+j7.71284007262345028266e+001
  +2.53938224688227371928e+001+j8.04360127250638328178e+001
  +2.70701358758885781697e+001+j8.27842905960162767087e+001
  +2.83028735445601000720e+001+j8.44480586596676090494e+001
  +2.92074435312348938965e+001+j8.56369626120532814184e+001
  +2.98753002790737731686e+001+j8.64981415888024685046e+001
</dep>
<dep k_L L>
  +8.20891333759162344919e-001
  +6.09796533217141889516e-001
  +4.26238127975576863715e-001
  +2.93236453000792152146e-001
  +2.03475614330826809484e-001
  +1.43958091169602647730e-001
  +1.04213311622226745268e-001
  +7.71983295328960150705e-002
  +5.84368188322835283022e-002
  +4.51162395364103352424e-002
</dep>
<dep U_V.v acfrequency L>
  +1.10000000000000000000e+002
  +1.10000000000000000000e+002
  +1.10000000000000000000e+002
  +1.10000000000000000000e+002
  +1.10000000000000000000e+002
  +1.10000000000000000000e+002
  +1.10000000000000000000e+002
  +1.10000000000000000000e+002
  +1.10000000000000000000e+002
  +1.10000000000000000000e+002
</dep>
<dep V1.i acfrequency L>
  -9.68771189574068741779e-002+j4.85361696196445924212e-001
  -1.22482578911371403629e-001+j5.43696885840801891199e-001
  -1.53752948226606428461e-001+j6.05929889986640324295e-001
  -1.84418773921453504894e-001+j6.59750094996594871333e-001
  -2.10486163776648693702e-001+j7.01167279329404591337e-001
  -2.30852931534752142673e-001+j7.31236479318762122581e-001
  -2.46092144326259809617e-001+j7.52584459963784313530e-001
  -2.57298850405091816818e-001+j7.67709624178796401495e-001
  -2.65522213920317218250e-001+j7.78517841927757081599e-001
  -2.71593638900670675262e-001+j7.86346741716386077314e-001
</dep>
<dep I_A.i acfrequency L>
  +9.68771189574068741779e-002-j4.85361696196445924212e-001
  +1.22482578911371403629e-001-j5.43696885840801891199e-001
  +1.53752948226606428461e-001-j6.05929889986640324295e-001
  +1.84418773921453504894e-001-j6.59750094996594871333e-001
  +2.10486163776648693702e-001-j7.01167279329404591337e-001
  +2.30852931534752142673e-001-j7.31236479318762122581e-001
  +2.46092144326259809617e-001-j7.52584459963784313530e-001
  +2.57298850405091816818e-001-j7.67709624178796401495e-001
  +2.65522213920317218250e-001-j7.78517841927757081599e-001
  +2.71593638900670675262e-001-j7.86346741716386077314e-001
</dep>
<dep Pr1.i acfrequency L>
  +7.38696382307738874662e-002-j2.41630968400998208390e-001
  +8.19810003737784093181e-002-j2.78208028540516960625e-001
  +9.40056749090148746628e-002-j3.11344652950195088792e-001
  +1.07696461859796310812e-001-j3.38740731819876572661e-001
  +1.20019825688619394266e-001-j3.59589872433631718707e-001
  +1.29886011200696510626e-001-j3.74674271891223709119e-001
  +1.37357056761635787367e-001-j3.85368875693716972375e-001
  +1.42887252974254613802e-001-j3.92940977063329921481e-001
  +1.46961120663466587866e-001-j3.98349843389866564713e-001
  +1.49976384849221988649e-001-j4.02266819711555978500e-001
</dep>
<dep Pr2.i acfrequency L>
  +2.30074807266329901811e-002-j2.43730727795447715822e-001
  +4.05015785375929873724e-002-j2.65488857300284930574e-001
  +5.97472733175915537984e-002-j2.94585237036445179992e-001
  +7.67223120616571940822e-002-j3.21009363176718243160e-001
  +9.04663380880292855579e-002-j3.41577406895772872630e-001
  +1.00966920334055632047e-001-j3.56562207427538413462e-001
  +1.08735087564624022249e-001-j3.67215584270067285644e-001
  +1.14411597430837230771e-001-j3.74768647115466535524e-001
  +1.18561093256850644262e-001-j3.80167998537890516886e-001
  +1.21617254051448672736e-001-j3.84079922004830098814e-001
</dep>
<dep _net1.v acfrequency L>
  +1.10000000000000000000e+002
  +1.10000000000000000000e+002
  +1.10000000000000000000e+002
  +1.10000000000000000000e+002
  +1.10000000000000000000e+002
  +1.10000000000000000000e+002
  +1.10000000000000000000e+002
  +1.10000000000000000000e+002
  +1.10000000000000000000e+002
  +1.10000000000000000000e+002
</dep>
<dep _net5.v acfrequency L>
  +1.10000000000000000000e+002
  +1.10000000000000000000e+002
  +1.10000000000000000000e+002
  +1.10000000000000000000e+002
  +1.10000000000000000000e+002
  +1.10000000000000000000e+002
  +1.10000000000000000000e+002
  +1.10000000000000000000e+002
  +1.10000000000000000000e+002
  +1.10000000000000000000e+002
</dep>
<dep _net2.v acfrequency L>
  +1.10000000000000000000e+002
  +1.10000000000000000000e+002
  +1.10000000000000000000e+002
  +1.10000000000000000000e+002
  +1.10000000000000000000e+002
  +1.10000000000000000000e+002
  +1.10000000000000000000e+002
  +1.10000000000000000000e+002
  +1.10000000000000000000e+002
  +1.10000000000000000000e+002
</dep>
<dep _net3.v acfrequency L>
  +1.03425602197461131482e+002+j2.15051561876888399638e+001
  +1.02703690966733717005e+002+j2.47605145401060120491e+001
  +1.01633494933097665580e+002+j2.77096741125673702300e+001
  +1.00415014894478119345e+002+j3.01479251319690142452e+001
  +9.93182355137128638489e+001+j3.20034986465932220767e+001
  +9.84401450031380278460e+001+j3.33460101983189076691e+001
  +9.77752219482144226959e+001+j3.42978299367408112630e+001
  +9.72830344852913242448e+001+j3.49717469586363591816e+001
  +9.69204602609514722644e+001+j3.54531360616981245926e+001
  +9.66521017484192555003e+001+j3.58017469543284860833e+001
</dep>
<dep _net4.v acfrequency L>
  +1.08090379099689442910e+002+j2.02296504070221558891e+001
  +1.06638368981379770162e+002+j2.20355751559236487935e+001
  +1.05040976314639905809e+002+j2.44505746740249563231e+001
  +1.03632048098882435738e+002+j2.66437771436676094083e+001
  +1.02491293938693559085e+002+j2.83509247723491490945e+001
  +1.01619745612273376878e+002+j2.95946632164856922032e+001
  +1.00974987732136213481e+002+j3.04788934944155869289e+001
  +1.00503837413240518117e+002+j3.11057977105837224485e+001
  +1.00159429259681388658e+002+j3.15539438786449082386e+001
  +9.99057679137297611760e+001+j3.18786335264008968693e+001
</dep>
<dep _net0.v acfrequency L>
  +1.10000000000000000000e+002
  +1.10000000000000000000e+002
  +1.10000000000000000000e+002
  +1.10000000000000000000e+002
  +1.10000000000000000000e+002
  +1.10000000000000000000e+002
  +1.10000000000000000000e+002
  +1.10000000000000000000e+002
  +1.10000000000000000000e+002
  +1.10000000000000000000e+002
</dep>
