<Qucs Dataset 0.0.19>
<indep acfrequency 1>
  +5.00000000000000000000e+001
</indep>
<indep L 10>
  +0.00000000000000000000e+000
  +2.00000000000000000000e+000
  +4.00000000000000000000e+000
  +6.00000000000000000000e+000
  +8.00000000000000000000e+000
  +1.00000000000000000000e+001
  +1.20000000000000000000e+001
  +1.40000000000000000000e+001
  +1.60000000000000000000e+001
  +1.80000000000000000000e+001
</indep>
<dep cos acfrequency L>
  +8.95267100998403675405e-001
  +6.78312603732726504546e-001
  +5.31902435260342310031e-001
  +4.54404173805432298749e-001
  +4.12446190775660415095e-001
  +3.88293024780187512324e-001
  +3.73561597495135011560e-001
  +3.64125984326399421143e-001
  +3.57830117332146702136e-001
  +3.53482195917567187937e-001
</dep>
<dep P acfrequency L>
  +5.62803006421151437166e+001
  +3.22990045428873742139e+001
  +1.98543537704806460908e+001
  +1.44860776347991357937e+001
  +1.19316258313660750190e+001
  +1.05732415869503331152e+001
  +9.78493657635823943508e+000
  +9.29601698636886020211e+000
  +8.97673432072239130264e+000
  +8.75948316202356380700e+000
</dep>
<dep S acfrequency L>
  +5.62803006421151437166e+001+j2.80079006812179613917e+001
  +3.22990045428873742139e+001+j3.49874830905608078524e+001
  +1.98543537704806460908e+001+j3.16087645476785255028e+001
  +1.44860776347991357937e+001+j2.83979226754609150873e+001
  +1.19316258313660750190e+001+j2.63537309425893653270e+001
  +1.05732415869503331152e+001+j2.50934776624186994809e+001
  +9.78493657635823943508e+000+j2.42973577294359337486e+001
  +9.29601698636886020211e+000+j2.37770525129396368413e+001
  +8.97673432072239130264e+000+j2.34255160231317880459e+001
  +8.75948316202356380700e+000+j2.31807485534775885583e+001
</dep>
<dep k_L L>
  +8.20891333759162344919e-001
  +6.09796533217141889516e-001
  +4.26238127975576863715e-001
  +2.93236453000792152146e-001
  +2.03475614330826809484e-001
  +1.43958091169602647730e-001
  +1.04213311622226745268e-001
  +7.71983295328960150705e-002
  +5.84368188322835283022e-002
  +4.51162395364103352424e-002
</dep>
<dep U_V.v acfrequency L>
  +5.50000000000000000000e+001
  +5.50000000000000000000e+001
  +5.50000000000000000000e+001
  +5.50000000000000000000e+001
  +5.50000000000000000000e+001
  +5.50000000000000000000e+001
  +5.50000000000000000000e+001
  +5.50000000000000000000e+001
  +5.50000000000000000000e+001
  +5.50000000000000000000e+001
</dep>
<dep V1.i acfrequency L>
  -1.02327819349300264129e+000+j5.09234557840326562683e-001
  -5.87254628052497729129e-001+j6.36136056192014631705e-001
  -3.60988250372375363284e-001+j5.74704809957791384889e-001
  -2.63383229723620659879e-001+j5.16325866826562118739e-001
  -2.16938651479383182163e-001+j4.79158744410715708995e-001
  -1.92240756126369677359e-001+j4.56245048407612707742e-001
  -1.77907937751968003859e-001+j4.41770140535198807541e-001
  -1.69018490661252018814e-001+j4.32310045689811572878e-001
  -1.63213351285861674178e-001+j4.25918473147850695781e-001
  -1.59263330218610249522e-001+j4.21468155517774334395e-001
</dep>
<dep I_A.i acfrequency L>
  +1.02327819349300264129e+000-j5.09234557840326562683e-001
  +5.87254628052497729129e-001-j6.36136056192014631705e-001
  +3.60988250372375363284e-001-j5.74704809957791384889e-001
  +2.63383229723620659879e-001-j5.16325866826562118739e-001
  +2.16938651479383182163e-001-j4.79158744410715708995e-001
  +1.92240756126369677359e-001-j4.56245048407612707742e-001
  +1.77907937751968003859e-001-j4.41770140535198807541e-001
  +1.69018490661252018814e-001-j4.32310045689811572878e-001
  +1.63213351285861674178e-001-j4.25918473147850695781e-001
  +1.59263330218610249522e-001-j4.21468155517774334395e-001
</dep>
<dep Pr1.i acfrequency L>
  +5.24354636122536521547e-001-j2.54092339071550932239e-001
  +3.03997169485295148927e-001-j3.21247820906065351121e-001
  +1.89058725584043491041e-001-j2.91542258957333211278e-001
  +1.39435152311345067488e-001-j2.62595775574070655622e-001
  +1.15857697639839093973e-001-j2.44082488589822566016e-001
  +1.03350150779845051385e-001-j2.32650540319727650029e-001
  +9.61094611752369570867e-002-j2.25423393123511811575e-001
  +9.16281592164803621037e-002-j2.20698105331871646806e-001
  +8.87066824945848264594e-002-j2.17504697786919387603e-001
  +8.67214478087484641478e-002-j2.15280802185568664875e-001
</dep>
<dep Pr2.i acfrequency L>
  +4.98923557370466064231e-001-j2.55142218768775630444e-001
  +2.83257458567202524691e-001-j3.14888235285949336095e-001
  +1.71929524788331872243e-001-j2.83162551000458229122e-001
  +1.23948077412275592391e-001-j2.53730091252491463116e-001
  +1.01080953839544074313e-001-j2.35076255820893115223e-001
  +8.88906053465246259737e-002-j2.23594508087885029957e-001
  +8.17984765767310606499e-002-j2.16346747411686968210e-001
  +7.73903314447716567104e-002-j2.11611940357939953827e-001
  +7.45066687912768477187e-002-j2.08413775360931308178e-001
  +7.25418824098617853746e-002-j2.06187353332205669521e-001
</dep>
<dep _net1.v acfrequency L>
  +5.50000000000000000000e+001
  +5.50000000000000000000e+001
  +5.50000000000000000000e+001
  +5.50000000000000000000e+001
  +5.50000000000000000000e+001
  +5.50000000000000000000e+001
  +5.50000000000000000000e+001
  +5.50000000000000000000e+001
  +5.50000000000000000000e+001
  +5.50000000000000000000e+001
</dep>
<dep _net5.v acfrequency L>
  +5.50000000000000000000e+001
  +5.50000000000000000000e+001
  +5.50000000000000000000e+001
  +5.50000000000000000000e+001
  +5.50000000000000000000e+001
  +5.50000000000000000000e+001
  +5.50000000000000000000e+001
  +5.50000000000000000000e+001
  +5.50000000000000000000e+001
  +5.50000000000000000000e+001
</dep>
<dep _net2.v acfrequency L>
  +5.50000000000000000000e+001
  +5.50000000000000000000e+001
  +5.50000000000000000000e+001
  +5.50000000000000000000e+001
  +5.50000000000000000000e+001
  +5.50000000000000000000e+001
  +5.50000000000000000000e+001
  +5.50000000000000000000e+001
  +5.50000000000000000000e+001
  +5.50000000000000000000e+001
</dep>
<dep _net3.v acfrequency L>
  +8.33243738509424858307e+000+j2.26142181773680306378e+001
  +2.79442519158087243625e+001+j2.85910560606398149730e+001
  +3.81737734230201226637e+001+j2.59472610472026588013e+001
  +4.25902714442902876613e+001+j2.33710240260922859079e+001
  +4.46886649100543138502e+001+j2.17233414844942096522e+001
  +4.58018365805937932578e+001+j2.07058980884557612967e+001
  +4.64462579554039152185e+001+j2.00626819879925548662e+001
  +4.68450938297332442062e+001+j1.96421313745365750947e+001
  +4.71051052579819469202e+001+j1.93579181030358249416e+001
  +4.72817911450213870239e+001+j1.91599913945156110628e+001
</dep>
<dep _net4.v acfrequency L>
  +4.14106552617486798340e+001-j2.11768041578083767718e+001
  +2.35103690610778102155e+001-j2.61357235287337950069e+001
  +1.42701505574315454794e+001-j2.35024917330380347380e+001
  +1.02876904252188730027e+001-j2.10595975739567897733e+001
  +8.38971916868215750185e+000-j1.95113292331341305896e+001
  +7.37792024376154298437e+000-j1.85583441712944576807e+001
  +6.78927355586867786741e+000-j1.79567800351700199712e+001
  +6.42339750991604763186e+000-j1.75637910497090139472e+001
  +6.18405350967597744472e+000-j1.72983433549572964694e+001
  +6.02097624001852693709e+000-j1.71135503265730726241e+001
</dep>
<dep _net0.v acfrequency L>
  +5.50000000000000000000e+001
  +5.50000000000000000000e+001
  +5.50000000000000000000e+001
  +5.50000000000000000000e+001
  +5.50000000000000000000e+001
  +5.50000000000000000000e+001
  +5.50000000000000000000e+001
  +5.50000000000000000000e+001
  +5.50000000000000000000e+001
  +5.50000000000000000000e+001
</dep>
