<Qucs Dataset 0.0.19>
<indep acfrequency 1>
  +5.00000000000000000000e+001
</indep>
<indep L 10>
  +0.00000000000000000000e+000
  +2.00000000000000000000e+000
  +4.00000000000000000000e+000
  +6.00000000000000000000e+000
  +8.00000000000000000000e+000
  +1.00000000000000000000e+001
  +1.20000000000000000000e+001
  +1.40000000000000000000e+001
  +1.60000000000000000000e+001
  +1.80000000000000000000e+001
</indep>
<dep cos acfrequency L>
  +3.60928684948990108339e-001
  +3.60928684948990330383e-001
  +3.60928684948990052828e-001
  +3.60928684948990274872e-001
  +3.60928684948990219361e-001
  +3.60928684948990219361e-001
  +3.60928684948990108339e-001
  +3.60928684948990330383e-001
  +3.60928684948990219361e-001
  +3.60928684948990052828e-001
</dep>
<dep P acfrequency L>
  +4.42769982862356314968e+000
  +4.42769982862356936693e+000
  +4.42769982862356403785e+000
  +4.42769982862356847875e+000
  +4.42769982862356759057e+000
  +4.42769982862356759057e+000
  +4.42769982862356492603e+000
  +4.42769982862356936693e+000
  +4.42769982862356759057e+000
  +4.42769982862356492603e+000
</dep>
<dep S acfrequency L>
  +4.42769982862356314968e+000+j1.14406083301776977379e+001
  +4.42769982862356936693e+000+j1.14406083301777030670e+001
  +4.42769982862356403785e+000+j1.14406083301776995143e+001
  +4.42769982862356847875e+000+j1.14406083301777030670e+001
  +4.42769982862356759057e+000+j1.14406083301777030670e+001
  +4.42769982862356759057e+000+j1.14406083301777030670e+001
  +4.42769982862356492603e+000+j1.14406083301777030670e+001
  +4.42769982862356936693e+000+j1.14406083301777030670e+001
  +4.42769982862356759057e+000+j1.14406083301777030670e+001
  +4.42769982862356492603e+000+j1.14406083301777012906e+001
</dep>
<dep k_L L>
  +8.20891333759162344919e-001
  +6.09796533217141889516e-001
  +4.26238127975576863715e-001
  +2.93236453000792152146e-001
  +2.03475614330826809484e-001
  +1.43958091169602647730e-001
  +1.04213311622226745268e-001
  +7.71983295328960150705e-002
  +5.84368188322835283022e-002
  +4.51162395364103352424e-002
</dep>
<dep U_V.v acfrequency L>
  +5.50000000000000000000e+001
  +5.50000000000000000000e+001
  +5.50000000000000000000e+001
  +5.50000000000000000000e+001
  +5.50000000000000000000e+001
  +5.50000000000000000000e+001
  +5.50000000000000000000e+001
  +5.50000000000000000000e+001
  +5.50000000000000000000e+001
  +5.50000000000000000000e+001
</dep>
<dep U_2.v acfrequency L>
  -4.08451131116657109033e+001-j1.58077171340261521948e+001
  -3.03416632019935335052e+001-j1.17427127196770353379e+001
  -2.12083424854072610799e+001-j8.20797038740762907594e+000
  -1.45905744143170075233e+001-j5.64678747574844841495e+000
  -1.01243418477196520655e+001-j3.91828348374010193567e+000
  -7.16292677891396323275e+000-j2.77216811869897261644e+000
  -5.18534466853068565229e+000-j2.00681196642721104695e+000
  -3.84115944721116475691e+000-j1.48659061959762928140e+000
  -2.90764243320761694989e+000-j1.12530448833327123559e+000
  -2.24484999567351817262e+000-j8.68793131822463648994e-001
</dep>
<dep V1.i acfrequency L>
  -8.05036332477011562503e-002+j2.08011060548685400295e-001
  -8.05036332477012672726e-002+j2.08011060548685511318e-001
  -8.05036332477011701281e-002+j2.08011060548685455807e-001
  -8.05036332477012395170e-002+j2.08011060548685511318e-001
  -8.05036332477012256392e-002+j2.08011060548685511318e-001
  -8.05036332477012256392e-002+j2.08011060548685511318e-001
  -8.05036332477011840059e-002+j2.08011060548685511318e-001
  -8.05036332477012672726e-002+j2.08011060548685511318e-001
  -8.05036332477012256392e-002+j2.08011060548685511318e-001
  -8.05036332477011840059e-002+j2.08011060548685483562e-001
</dep>
<dep I_A.i acfrequency L>
  +8.05036332477011562503e-002-j2.08011060548685400295e-001
  +8.05036332477012672726e-002-j2.08011060548685511318e-001
  +8.05036332477011701281e-002-j2.08011060548685455807e-001
  +8.05036332477012395170e-002-j2.08011060548685511318e-001
  +8.05036332477012256392e-002-j2.08011060548685511318e-001
  +8.05036332477012256392e-002-j2.08011060548685511318e-001
  +8.05036332477011840059e-002-j2.08011060548685511318e-001
  +8.05036332477012672726e-002-j2.08011060548685511318e-001
  +8.05036332477012256392e-002-j2.08011060548685511318e-001
  +8.05036332477011840059e-002-j2.08011060548685483562e-001
</dep>
<dep _net5.v acfrequency L>
  +0.00000000000000000000e+000+j2.77555756156289135106e-005
  +0.00000000000000000000e+000
  +0.00000000000000000000e+000
  +0.00000000000000000000e+000+j1.38777878078144567553e-005
  +0.00000000000000000000e+000
  +0.00000000000000000000e+000
  +0.00000000000000000000e+000
  +0.00000000000000000000e+000
  +0.00000000000000000000e+000
  +0.00000000000000000000e+000
</dep>
<dep _net4.v acfrequency L>
  +4.08451131116657109033e+001+j1.58077448896017678237e+001
  +3.03416632019935335052e+001+j1.17427127196770353379e+001
  +2.12083424854072610799e+001+j8.20797038740762907594e+000
  +1.45905744143170075233e+001+j5.64680135353625622940e+000
  +1.01243418477196520655e+001+j3.91828348374010193567e+000
  +7.16292677891396323275e+000+j2.77216811869897261644e+000
  +5.18534466853068565229e+000+j2.00681196642721104695e+000
  +3.84115944721116475691e+000+j1.48659061959762928140e+000
  +2.90764243320761694989e+000+j1.12530448833327123559e+000
  +2.24484999567351817262e+000+j8.68793131822463648994e-001
</dep>
<dep _net1.v acfrequency L>
  +5.50000000000000000000e+001
  +5.50000000000000000000e+001
  +5.50000000000000000000e+001
  +5.50000000000000000000e+001
  +5.50000000000000000000e+001
  +5.50000000000000000000e+001
  +5.50000000000000000000e+001
  +5.50000000000000000000e+001
  +5.50000000000000000000e+001
  +5.50000000000000000000e+001
</dep>
<dep _net2.v acfrequency L>
  +4.78351766409546073078e+001+j1.85129843888330007928e+001
  +4.78351766409545930969e+001+j1.85129843888330114510e+001
  +4.78351766409545930969e+001+j1.85129843888330078983e+001
  +4.78351766409545859915e+001+j1.85129843888330114510e+001
  +4.78351766409545859915e+001+j1.85129843888330150037e+001
  +4.78351766409545930969e+001+j1.85129843888330114510e+001
  +4.78351766409545930969e+001+j1.85129843888330114510e+001
  +4.78351766409545930969e+001+j1.85129843888330114510e+001
  +4.78351766409545859915e+001+j1.85129843888330114510e+001
  +4.78351766409545930969e+001+j1.85129843888330114510e+001
</dep>
<dep _net3.v acfrequency L>
  +4.08451131116657109033e+001+j1.58077448896017678237e+001
  +3.03416632019935335052e+001+j1.17427127196770371143e+001
  +2.12083424854072646326e+001+j8.20797038740763085229e+000
  +1.45905744143170075233e+001+j5.64680135353625622940e+000
  +1.01243418477196520655e+001+j3.91828348374010193567e+000
  +7.16292677891396323275e+000+j2.77216811869897261644e+000
  +5.18534466853068565229e+000+j2.00681196642721104695e+000
  +3.84115944721116475691e+000+j1.48659061959762928140e+000
  +2.90764243320761694989e+000+j1.12530448833327123559e+000
  +2.24484999567351817262e+000+j8.68793131822463648994e-001
</dep>
<dep _net0.v acfrequency L>
  +5.50000000000000000000e+001
  +5.50000000000000000000e+001
  +5.50000000000000000000e+001
  +5.50000000000000000000e+001
  +5.50000000000000000000e+001
  +5.50000000000000000000e+001
  +5.50000000000000000000e+001
  +5.50000000000000000000e+001
  +5.50000000000000000000e+001
  +5.50000000000000000000e+001
</dep>
