<Qucs Dataset 0.0.19>
<indep acfrequency 1>
  +5.00000000000000000000e+001
</indep>
<indep L 19>
  +0.00000000000000000000e+000
  +1.00000000000000000000e+000
  +2.00000000000000000000e+000
  +3.00000000000000000000e+000
  +4.00000000000000000000e+000
  +5.00000000000000000000e+000
  +6.00000000000000000000e+000
  +7.00000000000000000000e+000
  +8.00000000000000000000e+000
  +9.00000000000000000000e+000
  +1.00000000000000000000e+001
  +1.10000000000000000000e+001
  +1.20000000000000000000e+001
  +1.30000000000000000000e+001
  +1.40000000000000000000e+001
  +1.50000000000000000000e+001
  +1.60000000000000000000e+001
  +1.70000000000000000000e+001
  +1.80000000000000000000e+001
</indep>
<dep cos acfrequency L>
  +8.14114568445650554906e-001
  +7.05985288126919408036e-001
  +6.06086585322108351015e-001
  +nan-jnan
  +4.74237870741883504877e-001
  +4.37300244968233442489e-001
  +4.12685352060412513620e-001
  +3.96327145965182314757e-001
  +3.85411033601180785801e-001
  +3.78068720234797539526e-001
  +3.73080444785165499244e-001
  +3.69653358080538674280e-001
  +3.67271018925373560204e-001
  +3.65595053098947464498e-001
  +3.64401949209178677158e-001
  +3.63542662116536796635e-001
  +3.62916778525425087754e-001
  +3.62455924312751587291e-001
  +3.62113036799099674568e-001
</dep>
<dep P acfrequency L>
  +1.30676678406438959712e+001
  +1.09293159685300640405e+001
  +8.92165995990001015059e+000
  +0.00000000000000000000e+000
  +6.39587262155488467386e+000
  +5.73026742829231761078e+000
  +5.29911610903184460142e+000
  +5.01840682734443443991e+000
  +4.83376248103241401566e+000
  +4.71080106389904962327e+000
  +4.62783630658448164041e+000
  +4.57110869688574705805e+000
  +4.53180563356617138737e+000
  +4.50422081346477476416e+000
  +4.48461611894938361189e+000
  +4.47051346222870193969e+000
  +4.46025033852976715565e+000
  +4.45269813919989410067e+000
  +4.44708175172828479305e+000
</dep>
<dep S acfrequency L>
  +1.30676678406438959712e+001+j9.32110913617134251297e+000
  +1.09293159685300640405e+001+j1.09640120095986812743e+001
  +8.92165995990001015059e+000+j1.17083543450630891414e+001
  +0.00000000000000000000e+000
  +6.39587262155488467386e+000+j1.18735888323855700577e+001
  +5.73026742829231761078e+000+j1.17843947767814096750e+001
  +5.29911610903184460142e+000+j1.16961389355197642459e+001
  +5.01840682734443443991e+000+j1.16253613149664509763e+001
  +4.83376248103241401566e+000+j1.15729176699640845527e+001
  +4.71080106389904962327e+000+j1.15353467756047560755e+001
  +4.62783630658448164041e+000+j1.15087830271997937359e+001
  +4.57110869688574705805e+000+j1.14900507727274909797e+001
  +4.53180563356617138737e+000+j1.14767991904589035101e+001
  +4.50422081346477476416e+000+j1.14673643191452381274e+001
  +4.48461611894938361189e+000+j1.14605913219056461116e+001
  +4.47051346222870193969e+000+j1.14556843395361696025e+001
  +4.46025033852976715565e+000+j1.14520949585743831989e+001
  +4.45269813919989410067e+000+j1.14494437952383165680e+001
  +4.44708175172828479305e+000+j1.14474667472312852112e+001
</dep>
<dep k_L L>
  +8.20891333759162344919e-001
  +7.15541752799932706530e-001
  +6.09796533217141889516e-001
  +5.12000000000000010658e-001
  +4.26238127975576863715e-001
  +3.53553390593273730858e-001
  +2.93236453000792152146e-001
  +2.43783433191970461129e-001
  +2.03475614330826809484e-001
  +1.70676983453916658595e-001
  +1.43958091169602647730e-001
  +1.22126507903220618556e-001
  +1.04213311622226745268e-001
  +8.94427190999915883163e-002
  +7.71983295328960150705e-002
  +6.69919119263418794130e-002
  +5.84368188322835283022e-002
  +5.12263001867729259042e-002
  +4.51162395364103352424e-002
</dep>
<dep U_V.v acfrequency L>
  +5.50000000000000000000e+001
  +5.50000000000000000000e+001
  +5.50000000000000000000e+001
  +6.40000000000000000000e+001
  +5.50000000000000000000e+001
  +5.50000000000000000000e+001
  +5.50000000000000000000e+001
  +5.50000000000000000000e+001
  +5.50000000000000000000e+001
  +5.50000000000000000000e+001
  +5.50000000000000000000e+001
  +5.50000000000000000000e+001
  +5.50000000000000000000e+001
  +5.50000000000000000000e+001
  +5.50000000000000000000e+001
  +5.50000000000000000000e+001
  +5.50000000000000000000e+001
  +5.50000000000000000000e+001
  +5.50000000000000000000e+001
</dep>
<dep U_1.v acfrequency L>
  -1.00720328142339496935e+001+j1.30348239815538491371e+000
  -8.16650029796156395889e+000+j2.49125113903679640259e+000
  -6.29235593271548054872e+000+j2.87646159048948391046e+000
  +0.00000000000000000000e+000+j7.00000000000000000000e+000
  -3.69203478176792554422e+000+j2.44965570997217607641e+000
  -2.89102393364557652689e+000+j2.09599604252279814176e+000
  -2.30246512354305377102e+000+j1.76676124997374017767e+000
  -1.86137818739044380578e+000+j1.48194111886141843826e+000
  -1.52419676159293793205e+000+j1.24331064434317339895e+000
  -1.26191276466590962535e+000+j1.04616562698319337521e+000
  -1.05485660342875320339e+000+j8.84132267772394619954e-001
  -8.89344584314210706566e-001+j7.51013738203420100348e-001
  -7.55611862572168391239e-001+j6.41406532149864205827e-001
  -6.46532050146161552107e-001+j5.50820131386552169772e-001
  -5.56805360444406871601e-001+j4.75609314656767256935e-001
  -4.82428282803584740357e-001+j4.12848672203818822801e-001
  -4.20336672254378207469e-001+j3.60201843174189684227e-001
  -3.68159009922237601131e-001+j3.15804794107676700676e-001
  -3.24041877287883695047e-001+j2.78168345899813318489e-001
</dep>
<dep V1.i acfrequency L>
  -2.37593960738979925740e-001+j1.69474711566751673475e-001
  -1.98714835791455712855e-001+j1.99345672901794196408e-001
  -1.62211999270909262849e-001+j2.12879169910237975305e-001
  +0.00000000000000000000e+000
  -1.16288593119179717306e-001+j2.15883433316101269739e-001
  -1.04186680514405771714e-001+j2.14261723214207444599e-001
  -9.63475656187608164860e-002+j2.12657071554904791855e-001
  -9.12437604971715332525e-002+j2.11370205726662735435e-001
  -8.78865905642257083663e-002+j2.10416684908437900958e-001
  -8.56509284345281785011e-002+j2.09733577738268284207e-001
  -8.41424783015360250316e-002+j2.09250600494541694196e-001
  -8.31110672161044922168e-002+j2.08910014049590753160e-001
  -8.23964660648394825460e-002+j2.08669076190161867368e-001
  -8.18949238811777224800e-002+j2.08497533075367974531e-001
  -8.15384748899887906726e-002+j2.08374387671011740419e-001
  -8.12820629496127655678e-002+j2.08285169809748538228e-001
  -8.10954607005412164700e-002+j2.08219908337716058666e-001
  -8.09581479854526164797e-002+j2.08171705367969389622e-001
  -8.08560318496051727566e-002+j2.08135759040568829592e-001
</dep>
<dep I_A.i acfrequency L>
  +2.37593960738979925740e-001-j1.69474711566751673475e-001
  +1.98714835791455712855e-001-j1.99345672901794196408e-001
  +1.62211999270909262849e-001-j2.12879169910237975305e-001
  +0.00000000000000000000e+000
  +1.16288593119179717306e-001-j2.15883433316101269739e-001
  +1.04186680514405771714e-001-j2.14261723214207444599e-001
  +9.63475656187608164860e-002-j2.12657071554904791855e-001
  +9.12437604971715332525e-002-j2.11370205726662735435e-001
  +8.78865905642257083663e-002-j2.10416684908437900958e-001
  +8.56509284345281785011e-002-j2.09733577738268284207e-001
  +8.41424783015360250316e-002-j2.09250600494541694196e-001
  +8.31110672161044922168e-002-j2.08910014049590753160e-001
  +8.23964660648394825460e-002-j2.08669076190161867368e-001
  +8.18949238811777224800e-002-j2.08497533075367974531e-001
  +8.15384748899887906726e-002-j2.08374387671011740419e-001
  +8.12820629496127655678e-002-j2.08285169809748538228e-001
  +8.10954607005412164700e-002-j2.08219908337716058666e-001
  +8.09581479854526164797e-002-j2.08171705367969389622e-001
  +8.08560318496051727566e-002-j2.08135759040568829592e-001
</dep>
<dep Pr1.i acfrequency L>
  -2.01440656284679109334e-001+j2.60696479631076644123e-002
  -1.63330005959231305823e-001+j4.98250227807359169496e-002
  -1.25847118654309586550e-001+j5.75292318097896590579e-002
  +2.73291653896701181026e-003+j1.33397314358965318748e-001
  -7.38406956353585552932e-002+j4.89931141994435215281e-002
  -5.78204786729115127741e-002+j4.19199208504559550637e-002
  -4.60493024708610657059e-002+j3.53352249994747444339e-002
  -3.72275637478088894383e-002+j2.96388223772283895818e-002
  -3.04839352318587927804e-002+j2.48662128868634632606e-002
  -2.52382552933182006949e-002+j2.09233125396638582061e-002
  -2.10971320685750668433e-002+j1.76826453554479040564e-002
  -1.77868916862842091353e-002+j1.50202747640683972191e-002
  -1.51122372514433667146e-002+j1.28281306429972839778e-002
  -1.29306410029232446424e-002+j1.10164026277310388158e-002
  -1.11361072088881369463e-002+j9.51218629313534645708e-003
  -9.64856565607169480714e-003+j8.25697344407637714991e-003
  -8.40673344508756359428e-003+j7.20403686348379361515e-003
  -7.36318019845694487352e-003+j6.31609588215353325025e-003
  -6.48083754575767400502e-003+j5.56336691799626682081e-003
</dep>
<dep _net7.v acfrequency L>
  -6.40000000000000000000e+001-j8.00000000000000000000e+000
  -1.20000000000000000000e+001+j8.00000000000000000000e+000
  +4.00000000000000000000e+000+j1.60000000000000000000e+001
  -3.99795450762990400000e+016-j4.24664465278230400000e+015
  -7.00000000000000000000e+000+j4.00000000000000000000e+000
  +0.00000000000000000000e+000
  +0.00000000000000000000e+000-j8.00000000000000000000e+000
  +6.00000000000000000000e+000-j6.00000000000000000000e+000
  -8.00000000000000000000e+000
  -3.81469726562500000000e-006-j1.14440917968750000000e-005
  +1.35000000000000000000e+001+j7.00000000000000000000e+000
  +7.62939453125000000000e-006-j5.72204589843750000000e-006
  +0.00000000000000000000e+000
  -1.40000000000000000000e+001-j3.00000000000000000000e+000
  +0.00000000000000000000e+000+j4.00000000000000000000e+000
  +0.00000000000000000000e+000
  +0.00000000000000000000e+000-j9.53674316406250000000e-007
  +1.63840000000000000000e+004
  +0.00000000000000000000e+000-j9.53674316406250000000e-007
</dep>
<dep _net5.v acfrequency L>
  -5.39279671857660503065e+001-j9.30348239815538491371e+000
  -3.83349970203843604111e+000+j5.50874886096320359741e+000
  +1.02923559327154805487e+001+j1.31235384095105160895e+001
  -3.99795450762990400000e+016-j4.24664465278231100000e+015
  -3.30796521823207445578e+000+j1.55034429002782392359e+000
  +2.89102393364557652689e+000-j2.09599604252279814176e+000
  +2.30246512354305377102e+000-j9.76676124997374017767e+000
  +7.86137818739044380578e+000-j7.48194111886141843826e+000
  -6.47580323840706206795e+000-j1.24331064434317339895e+000
  +1.26190894996864400035e+000-j1.04617707107499025021e+000
  +1.45548566034287532034e+001+j6.11586773222760538005e+000
  +8.89352213708741956566e-001-j7.51019460249318537848e-001
  +7.55611862572168391239e-001-j6.41406532149864205827e-001
  -1.33534679498538384479e+001-j3.55082013138655216977e+000
  +5.56805360444406871601e-001+j3.52439068534323274307e+000
  +4.82428282803584740357e-001-j4.12848672203818822801e-001
  +4.20336672254378207469e-001-j3.60202796848506090477e-001
  +1.63843681590099222376e+004-j3.15804794107676700676e-001
  +3.24041877287883695047e-001-j2.78169299574129724739e-001
</dep>
<dep _net6.v acfrequency L>
  -6.40000000000000000000e+001-j8.00000000000000000000e+000
  -1.20000000000000000000e+001+j8.00000000000000000000e+000
  +4.00000000000000000000e+000+j1.60000000000000000000e+001
  -3.99795450762990400000e+016-j4.24664465278230400000e+015
  -7.00000000000000000000e+000+j4.00000000000000000000e+000
  +0.00000000000000000000e+000
  +0.00000000000000000000e+000-j8.00000000000000000000e+000
  +6.00000000000000000000e+000-j6.00000000000000000000e+000
  -8.00000000000000000000e+000
  -3.81469726562500000000e-006-j1.14440917968750000000e-005
  +1.35000000000000000000e+001+j7.00000000000000000000e+000
  +7.62939453125000000000e-006-j5.72204589843750000000e-006
  +0.00000000000000000000e+000
  -1.40000000000000000000e+001-j3.00000000000000000000e+000
  +0.00000000000000000000e+000+j4.00000000000000000000e+000
  +0.00000000000000000000e+000
  +0.00000000000000000000e+000-j9.53674316406250000000e-007
  +1.63840000000000000000e+004
  +0.00000000000000000000e+000-j9.53674316406250000000e-007
</dep>
<dep _net2.v acfrequency L>
  -6.40000000000000000000e+001+j9.60000000000000000000e+001
  +6.40000000000000000000e+001+j6.40000000000000000000e+001
  +8.00000000000000000000e+001
  -3.60287970189639680000e+017
  +0.00000000000000000000e+000-j6.40000000000000000000e+001
  +0.00000000000000000000e+000+j9.60000000000000000000e+001
  -1.28000000000000000000e+002+j1.28000000000000000000e+002
  +0.00000000000000000000e+000+j9.60000000000000000000e+001
  +0.00000000000000000000e+000
  +3.20000000000000000000e+001-j6.40000000000000000000e+001
  +0.00000000000000000000e+000
  -6.40000000000000000000e+001-j1.28000000000000000000e+002
  +1.28000000000000000000e+002+j9.60000000000000000000e+001
  +1.28000000000000000000e+002
  +0.00000000000000000000e+000-j1.28000000000000000000e+002
  +1.60000000000000000000e+001
  +0.00000000000000000000e+000-j3.20000000000000000000e+001
  +1.28000000000000000000e+002-j2.43200000000000000000e+003
  -1.28000000000000000000e+002
</dep>
<dep _net1.v acfrequency L>
  -1.19000000000000000000e+002+j9.60000000000000000000e+001
  +9.00000000000000000000e+000+j6.40000000000000000000e+001
  +2.50000000000000000000e+001
  -3.60287970189639744000e+017
  -5.50000000000000000000e+001-j6.40000000000000000000e+001
  -5.50000000000000000000e+001+j9.60000000000000000000e+001
  -1.83000000000000000000e+002+j1.28000000000000000000e+002
  -5.50000000000000000000e+001+j9.60000000000000000000e+001
  -5.50000000000000000000e+001
  -2.30000000000000000000e+001-j6.40000000000000000000e+001
  -5.50000000000000000000e+001
  -1.19000000000000000000e+002-j1.28000000000000000000e+002
  +7.30000000000000000000e+001+j9.60000000000000000000e+001
  +7.30000000000000000000e+001
  -5.50000000000000000000e+001-j1.28000000000000000000e+002
  -3.90000000000000000000e+001
  -5.50000000000000000000e+001-j3.20000000000000000000e+001
  +7.30000000000000000000e+001-j2.43200000000000000000e+003
  -1.83000000000000000000e+002
</dep>
<dep _net3.v acfrequency L>
  -8.51458625057692159999e+001+j1.11083249329440874931e+002
  +4.63143796145604511594e+001+j8.17417648882596665771e+001
  +6.55631320648890749681e+001+j1.89462461220111784144e+001
  -3.60287970189639680000e+017+j3.10000000000000000000e+001
  -1.03496847876069892891e+001-j4.47863744348669854389e+001
  -9.27261456578211351598e+000+j1.15069293366064457018e+002
  -1.36574933340069691212e+002+j1.46926479368386537772e+002
  -8.12069468424827256570e+000+j1.14811948309672985147e+002
  -7.82190656021608798909e+000+j1.87270849568509767380e+001
  +2.43770673693269905868e+001-j4.53337115812941178206e+001
  -7.48868056883670529800e+000+j1.86233034440142120047e+001
  -7.13968849822333027078e+001-j1.09407008749586424301e+002
  +1.20666714520229291452e+002+j1.14571547780924404947e+002
  +1.20711351774575192053e+002+j1.85562804437077524256e+001
  -7.25692426520900024656e+000-j1.09454679497279968814e+002
  +8.76589639748446458611e+000+j1.85373801130676199023e+001
  -7.21749600234817112465e+000-j1.34684281579432685305e+001
  +1.20794724829294722213e+002-j2.41347271822225047799e+003
  -1.35196186834614849204e+002+j1.85240825546106293586e+001
</dep>
<dep _net4.v acfrequency L>
  -3.72083927141376946679e+001-j1.14672631790933365892e+001
  +9.72289079257776123200e+000+j1.37327197016211499658e+000
  +2.07376667810231758438e+001+j8.34861216929797222974e+000
  -3.99795450762990240000e+016-j4.24664465278232600000e+015
  +2.82081251950268319106e+000-j2.51608418852598880733e+000
  +7.69012366349723386350e+000-j5.57534947311064232878e+000
  +6.12455722862452311972e+000-j1.26995849249301464567e+001
  +1.09512659784585828504e+001-j9.94196337617137437803e+000
  -3.94563661416278232963e+000-j3.30720631395284092591e+000
  +3.35668413931405407169e+000-j2.78281201186709070683e+000
  +1.63059185651204856526e+001+j4.64820816772542855233e+000
  +2.36566422367033180052e+000-j1.99770226566699582449e+000
  +2.00992755444196724568e+000-j1.70614137551863898068e+000
  -1.22802247466112124386e+001-j4.46518154948822854067e+000
  +1.48110225878212231621e+000+j2.73487922301299901662e+000
  +1.28325923225753557588e+000-j1.09817746806215810196e+000
  +1.11809554819664591641e+000-j9.58137856517660813083e-001
  +1.63849793029663924244e+004-j8.40040752327695372514e-001
  +8.61951393585770775374e-001-j7.39928753767819857856e-001
</dep>
<dep _net0.v acfrequency L>
  -6.40000000000000000000e+001+j9.60000000000000000000e+001
  +6.40000000000000000000e+001+j6.40000000000000000000e+001
  +8.00000000000000000000e+001
  -3.60287970189639680000e+017
  +0.00000000000000000000e+000-j6.40000000000000000000e+001
  +0.00000000000000000000e+000+j9.60000000000000000000e+001
  -1.28000000000000000000e+002+j1.28000000000000000000e+002
  +0.00000000000000000000e+000+j9.60000000000000000000e+001
  +0.00000000000000000000e+000
  +3.20000000000000000000e+001-j6.40000000000000000000e+001
  +0.00000000000000000000e+000
  -6.40000000000000000000e+001-j1.28000000000000000000e+002
  +1.28000000000000000000e+002+j9.60000000000000000000e+001
  +1.28000000000000000000e+002
  +0.00000000000000000000e+000-j1.28000000000000000000e+002
  +1.60000000000000000000e+001
  +0.00000000000000000000e+000-j3.20000000000000000000e+001
  +1.28000000000000000000e+002-j2.43200000000000000000e+003
  -1.28000000000000000000e+002
</dep>
